T5D1C 000:007.528   SEGGER J-Link V7.58b Log File
T5D1C 000:007.714   DLL Compiled: Nov 16 2021 15:00:10
T5D1C 000:007.729   Logging started @ 2024-03-06 03:12
T5D1C 000:007.743 - 7.749ms
T5D1C 000:007.763 JLINK_SetWarnOutHandler(...)
T5D1C 000:007.778 - 0.021ms
T5D1C 000:007.792 JLINK_OpenEx(...)
T5D1C 000:010.706   Firmware: J-Link V9 compiled May  7 2021 16:26:12
T5D1C 000:011.259   Firmware: J-Link V9 compiled May  7 2021 16:26:12
T5D1C 000:011.464   Decompressing FW timestamp took 132 us
T5D1C 000:019.810   Hardware: V9.60
T5D1C 000:019.866   S/N: 69661471
T5D1C 000:019.887   OEM: SEGGER
T5D1C 000:019.907   Feature(s): RDI, GDB, FlashDL, FlashBP, JFlash
T5D1C 000:021.809   TELNET listener socket opened on port 19021
T5D1C 000:021.961   WEBSRV WEBSRV_Init(): Starting webserver thread(s)
T5D1C 000:022.139   WEBSRV Webserver running on local port 19080
T5D1C 000:029.141 - 21.399ms returns "O.K."
T5D1C 000:029.238 JLINK_GetEmuCaps()
T5D1C 000:029.260 - 0.028ms returns 0xB9FF7BBF
T5D1C 000:029.278 JLINK_TIF_GetAvailable(...)
T5D1C 000:029.682 - 0.413ms
T5D1C 000:029.703 JLINK_SetErrorOutHandler(...)
T5D1C 000:029.717 - 0.021ms
T5D1C 000:029.763 JLINK_ExecCommand("ProjectFile = "C:\Users\25607\Desktop\T98290302\1210_1_16\JLinkSettings.ini"", ...). 
T5D1C 000:040.974   Ref file found at: D:\software\keil5\ARM\Segger\JLinkDevices.ref
T5D1C 000:041.171   XML referenced by ref file: C:\Program Files\SEGGER\JLink\JLinkDevices.xml
T5D1C 000:041.765   C:\Program Files\SEGGER\JLink\JLinkDevices.xml evaluated successfully.
T5D1C 000:090.983 - 61.242ms returns 0x00
T5D1C 000:092.212 JLINK_ExecCommand("Device = TLE9871QXA20", ...). 
T5D1C 000:093.176   Device "TLE9871" selected.
T5D1C 000:093.526 - 1.296ms returns 0x00
T5D1C 000:093.548 JLINK_ExecCommand("DisableConnectionTimeout", ...). 
T5D1C 000:093.565 - 0.008ms returns 0x01
T5D1C 000:093.580 JLINK_GetHardwareVersion()
T5D1C 000:093.594 - 0.020ms returns 96000
T5D1C 000:093.609 JLINK_GetDLLVersion()
T5D1C 000:093.622 - 0.020ms returns 75802
T5D1C 000:093.637 JLINK_GetOEMString(...)
T5D1C 000:093.662 JLINK_GetFirmwareString(...)
T5D1C 000:093.677 - 0.021ms
T5D1C 000:096.162 JLINK_GetDLLVersion()
T5D1C 000:096.192 - 0.036ms returns 75802
T5D1C 000:096.207 JLINK_GetCompileDateTime()
T5D1C 000:096.220 - 0.020ms
T5D1C 000:096.937 JLINK_GetFirmwareString(...)
T5D1C 000:096.960 - 0.029ms
T5D1C 000:097.712 JLINK_GetHardwareVersion()
T5D1C 000:097.734 - 0.029ms returns 96000
T5D1C 000:100.652 JLINK_GetSN()
T5D1C 000:100.688 - 0.043ms returns 69661471
T5D1C 000:102.321 JLINK_GetOEMString(...)
T5D1C 000:106.070 JLINK_TIF_Select(JLINKARM_TIF_SWD)
T5D1C 000:107.845 - 1.799ms returns 0x00
T5D1C 000:107.881 JLINK_HasError()
T5D1C 000:107.913 JLINK_SetSpeed(5000)
T5D1C 000:108.203 - 0.299ms
T5D1C 000:108.223 JLINK_GetId()
T5D1C 000:110.400   InitTarget() start
T5D1C 000:110.436    J-Link Script File: Executing InitTarget()
T5D1C 000:168.872   InitTarget() end
T5D1C 000:171.685   Found SW-DP with ID 0x2BA01477
T5D1C 000:177.362   DPIDR: 0x2BA01477
T5D1C 000:178.986   CoreSight SoC-400 or earlier
T5D1C 000:181.030   Scanning AP map to find all available APs
T5D1C 000:183.478   AP[1]: Stopped AP scan as end of AP map has been reached
T5D1C 000:185.067   AP[0]: AHB-AP (IDR: 0x24770011)
T5D1C 000:186.569   Iterating through AP map to find AHB-AP to use
T5D1C 000:189.330   AP[0]: Core found
T5D1C 000:191.157   AP[0]: AHB-AP ROM base: 0xE00FF000
T5D1C 000:193.592   CPUID register: 0x412FC231. Implementer code: 0x41 (ARM)
T5D1C 000:195.814   Found Cortex-M3 r2p1, Little endian.
T5D1C 000:298.137   -- Max. mem block: 0x00010C40
T5D1C 000:298.523   CPU_ReadMem(4 bytes @ 0xE000EDF0)
T5D1C 000:299.075   CPU_ReadMem(4 bytes @ 0xE0002000)
T5D1C 000:302.437   FPUnit: 2 code (BP) slots and 0 literal slots
T5D1C 000:302.491   CPU_ReadMem(4 bytes @ 0xE000EDFC)
T5D1C 000:303.015   CPU_WriteMem(4 bytes @ 0xE000EDFC)
T5D1C 000:303.487   CPU_ReadMem(4 bytes @ 0xE0001000)
T5D1C 000:303.957   CPU_WriteMem(4 bytes @ 0xE0001000)
T5D1C 000:304.410   CPU_ReadMem(4 bytes @ 0xE000ED88)
T5D1C 000:305.040   CPU_WriteMem(4 bytes @ 0xE000ED88)
T5D1C 000:305.674   CPU_ReadMem(4 bytes @ 0xE000ED88)
T5D1C 000:306.210   CPU_WriteMem(4 bytes @ 0xE000ED88)
T5D1C 000:308.610   CoreSight components:
T5D1C 000:310.291   ROMTbl[0] @ E00FF000
T5D1C 000:310.329   CPU_ReadMem(64 bytes @ 0xE00FF000)
T5D1C 000:311.164   CPU_ReadMem(32 bytes @ 0xE000EFE0)
T5D1C 000:313.345   [0][0]: E000E000 CID B105E00D PID 000BB000 SCS
T5D1C 000:313.383   CPU_ReadMem(32 bytes @ 0xE0001FE0)
T5D1C 000:315.778   [0][1]: E0001000 CID B105E00D PID 003BB002 DWT
T5D1C 000:315.855   CPU_ReadMem(32 bytes @ 0xE0002FE0)
T5D1C 000:318.381   [0][2]: E0002000 CID B105E00D PID 002BB003 FPB
T5D1C 000:318.923 - 210.710ms returns 0x2BA01477
T5D1C 000:318.952 JLINK_GetDLLVersion()
T5D1C 000:318.966 - 0.021ms returns 75802
T5D1C 000:318.983 JLINK_CORE_GetFound()
T5D1C 000:318.997 - 0.020ms returns 0x30000FF
T5D1C 000:319.048 JLINK_GetDebugInfo(0x100 = JLINKARM_ROM_TABLE_ADDR_INDEX)
T5D1C 000:319.067   Value=0xE00FF000
T5D1C 000:319.088 - 0.047ms returns 0
T5D1C 000:320.838 JLINK_GetDebugInfo(0x100 = JLINKARM_ROM_TABLE_ADDR_INDEX)
T5D1C 000:320.871   Value=0xE00FF000
T5D1C 000:320.891 - 0.060ms returns 0
T5D1C 000:320.906 JLINK_GetDebugInfo(0x101 = JLINKARM_DEBUG_INFO_ETM_ADDR_INDEX)
T5D1C 000:320.920   Value=0x00000000
T5D1C 000:320.940 - 0.040ms returns 0
T5D1C 000:320.955 JLINK_ReadMemEx(0xE0041FF0, 0x10 Bytes, Flags = 0x02000004)
T5D1C 000:320.997   CPU_ReadMem(16 bytes @ 0xE0041FF0)
T5D1C 000:321.610   Data:  00 00 00 00 00 00 00 00 00 00 00 00 00 00 00 00
T5D1C 000:321.642 - 0.694ms returns 16 (0x10)
T5D1C 000:321.659 JLINK_GetDebugInfo(0x102 = JLINKARM_DEBUG_INFO_MTB_ADDR_INDEX)
T5D1C 000:321.676   Value=0x00000000
T5D1C 000:321.696 - 0.043ms returns 0
T5D1C 000:321.711 JLINK_GetDebugInfo(0x103 = JLINKARM_DEBUG_INFO_TPIU_ADDR_INDEX)
T5D1C 000:321.725   Value=0x00000000
T5D1C 000:321.745 - 0.040ms returns 0
T5D1C 000:321.759 JLINK_ReadMemEx(0xE0040FF0, 0x10 Bytes, Flags = 0x02000004)
T5D1C 000:321.785   CPU_ReadMem(16 bytes @ 0xE0040FF0)
T5D1C 000:322.337   Data:  00 00 00 00 00 00 00 00 00 00 00 00 00 00 00 00
T5D1C 000:322.368 - 0.616ms returns 16 (0x10)
T5D1C 000:322.386 JLINK_GetDebugInfo(0x104 = JLINKARM_DEBUG_INFO_ITM_ADDR_INDEX)
T5D1C 000:322.400   Value=0xE0000000
T5D1C 000:322.420 - 0.041ms returns 0
T5D1C 000:322.435 JLINK_GetDebugInfo(0x105 = JLINKARM_DEBUG_INFO_DWT_ADDR_INDEX)
T5D1C 000:322.449   Value=0xE0001000
T5D1C 000:322.469 - 0.040ms returns 0
T5D1C 000:322.484 JLINK_GetDebugInfo(0x106 = JLINKARM_DEBUG_INFO_FPB_ADDR_INDEX)
T5D1C 000:322.498   Value=0xE0002000
T5D1C 000:322.522 - 0.046ms returns 0
T5D1C 000:322.538 JLINK_GetDebugInfo(0x107 = JLINKARM_DEBUG_INFO_NVIC_ADDR_INDEX)
T5D1C 000:322.552   Value=0xE000E000
T5D1C 000:322.572 - 0.040ms returns 0
T5D1C 000:322.587 JLINK_GetDebugInfo(0x10C = JLINKARM_DEBUG_INFO_DBG_ADDR_INDEX)
T5D1C 000:322.601   Value=0xE000EDF0
T5D1C 000:322.620 - 0.040ms returns 0
T5D1C 000:322.635 JLINK_GetDebugInfo(0x01 = Unknown)
T5D1C 000:322.649   Value=0x00000000
T5D1C 000:322.669 - 0.040ms returns 0
T5D1C 000:322.684 JLINK_ReadMemU32(0xE000ED00, 0x1 Items)
T5D1C 000:322.703   CPU_ReadMem(4 bytes @ 0xE000ED00)
T5D1C 000:323.165   Data:  31 C2 2F 41
T5D1C 000:323.188   Debug reg: CPUID
T5D1C 000:323.208 - 0.531ms returns 1 (0x1)
T5D1C 000:323.224 JLINK_GetDebugInfo(0x10F = JLINKARM_DEBUG_INFO_HAS_CORTEX_M_SECURITY_EXT_INDEX)
T5D1C 000:323.238   Value=0x00000000
T5D1C 000:323.258 - 0.040ms returns 0
T5D1C 000:323.275 JLINK_HasError()
T5D1C 000:323.290 JLINK_SetResetType(JLINKARM_CM3_RESET_TYPE_NORMAL)
T5D1C 000:323.304 - 0.021ms returns JLINKARM_CM3_RESET_TYPE_NORMAL
T5D1C 000:323.319 JLINK_Reset()
T5D1C 000:325.278   ResetTarget() start
T5D1C 000:325.314    J-Link Script File: Executing ResetTarget()
T5D1C 000:327.655   CPU_ReadMem(64 bytes @ 0x11000000)
T5D1C 000:328.417    -- Updating C cache (64 bytes @ 0x11000000)
T5D1C 000:328.439    -- Read from C cache (4 bytes @ 0x11000004)
T5D1C 000:328.464   CPU_WriteMem(4 bytes @ 0xE0002000)
T5D1C 000:328.920   CPU_ReadMem(4 bytes @ 0xE0002008)
T5D1C 000:329.333   CPU_WriteMem(4 bytes @ 0xE0002008)
T5D1C 000:329.770   CPU_WriteMem(4 bytes @ 0xE000ED0C)
T5D1C 000:432.225   CPU_WriteMem(4 bytes @ 0xE0002008)
T5D1C 000:434.761   ResetTarget() end
T5D1C 000:437.043   CPU_WriteMem(4 bytes @ 0xE0002000)
T5D1C 000:437.528   CPU_ReadMem(4 bytes @ 0xE000EDFC)
T5D1C 000:438.001   CPU_ReadMem(4 bytes @ 0xE0001000)
T5D1C 000:438.482 - 115.175ms
T5D1C 000:438.510 JLINK_Halt()
T5D1C 000:438.525 - 0.021ms returns 0x00
T5D1C 000:438.542 JLINK_ReadMemU32(0xE000EDF0, 0x1 Items)
T5D1C 000:438.565   CPU_ReadMem(4 bytes @ 0xE000EDF0)
T5D1C 000:439.018   Data:  03 00 03 00
T5D1C 000:439.040   Debug reg: DHCSR
T5D1C 000:439.061 - 0.525ms returns 1 (0x1)
T5D1C 000:439.078 JLINK_WriteU32_64(0xE000EDF0, 0xA05F0003)
T5D1C 000:439.092   Debug reg: DHCSR
T5D1C 000:439.353   CPU_WriteMem(4 bytes @ 0xE000EDF0)
T5D1C 000:439.823 - 0.760ms returns 0 (0x00000000)
T5D1C 000:439.851 JLINK_WriteU32_64(0xE000EDFC, 0x01000000)
T5D1C 000:439.868   Debug reg: DEMCR
T5D1C 000:439.897   CPU_WriteMem(4 bytes @ 0xE000EDFC)
T5D1C 000:440.385 - 0.542ms returns 0 (0x00000000)
T5D1C 000:447.031 JLINK_GetHWStatus(...)
T5D1C 000:447.482 - 0.470ms returns 0
T5D1C 000:453.002 JLINK_GetNumBPUnits(Type = 0xFFFFFF00)
T5D1C 000:453.047 - 0.055ms returns 0x02
T5D1C 000:453.070 JLINK_GetNumBPUnits(Type = 0xF0)
T5D1C 000:453.091 - 0.031ms returns 0x2000
T5D1C 000:453.112 JLINK_GetNumWPUnits()
T5D1C 000:453.132 - 0.029ms returns 1
T5D1C 000:459.307 JLINK_GetSpeed()
T5D1C 000:459.345 - 0.045ms returns 4000
T5D1C 000:462.180 JLINK_ReadMemU32(0xE000E004, 0x1 Items)
T5D1C 000:462.230   CPU_ReadMem(4 bytes @ 0xE000E004)
T5D1C 000:462.731   Data:  00 00 00 00
T5D1C 000:462.753 - 0.580ms returns 1 (0x1)
T5D1C 000:462.769 JLINK_ReadMemU32(0xE000E004, 0x1 Items)
T5D1C 000:462.786   CPU_ReadMem(4 bytes @ 0xE000E004)
T5D1C 000:463.235   Data:  00 00 00 00
T5D1C 000:463.256 - 0.493ms returns 1 (0x1)
T5D1C 000:463.272 JLINK_WriteMemEx(0xE0001000, 0x0000001C Bytes, Flags = 0x02000004)
T5D1C 000:463.287   Data:  01 00 00 00 00 00 00 00 00 00 00 00 00 00 00 00 ...
T5D1C 000:463.313   CPU_WriteMem(28 bytes @ 0xE0001000)
T5D1C 000:463.926 - 0.662ms returns 0x1C
T5D1C 000:463.946 JLINK_Halt()
T5D1C 000:463.960 - 0.020ms returns 0x00
T5D1C 000:463.974 JLINK_IsHalted()
T5D1C 000:463.989 - 0.021ms returns TRUE
T5D1C 000:466.637 JLINK_WriteMem(0x18000000, 0xD8 Bytes, ...)
T5D1C 000:466.669   Data:  00 BE 0A E0 0D 78 2D 06 68 40 08 24 40 00 00 D3 ...
T5D1C 000:466.954   CPU_WriteMem(216 bytes @ 0x18000000)
T5D1C 000:468.483 - 1.867ms returns 0xD8
T5D1C 000:468.549 JLINK_HasError()
T5D1C 000:468.565 JLINK_WriteReg(R0, 0x11000000)
T5D1C 000:468.588 - 0.029ms returns 0
T5D1C 000:468.603 JLINK_WriteReg(R1, 0x00B71B00)
T5D1C 000:468.617 - 0.020ms returns 0
T5D1C 000:468.631 JLINK_WriteReg(R2, 0x00000001)
T5D1C 000:468.645 - 0.020ms returns 0
T5D1C 000:468.659 JLINK_WriteReg(R3, 0x00000000)
T5D1C 000:468.673 - 0.020ms returns 0
T5D1C 000:468.687 JLINK_WriteReg(R4, 0x00000000)
T5D1C 000:468.701 - 0.020ms returns 0
T5D1C 000:468.715 JLINK_WriteReg(R5, 0x00000000)
T5D1C 000:468.729 - 0.020ms returns 0
T5D1C 000:468.743 JLINK_WriteReg(R6, 0x00000000)
T5D1C 000:468.757 - 0.020ms returns 0
T5D1C 000:468.771 JLINK_WriteReg(R7, 0x00000000)
T5D1C 000:468.785 - 0.020ms returns 0
T5D1C 000:468.799 JLINK_WriteReg(R8, 0x00000000)
T5D1C 000:468.823 - 0.030ms returns 0
T5D1C 000:468.837 JLINK_WriteReg(R9, 0x180000B4)
T5D1C 000:468.851 - 0.020ms returns 0
T5D1C 000:468.865 JLINK_WriteReg(R10, 0x00000000)
T5D1C 000:468.879 - 0.020ms returns 0
T5D1C 000:468.893 JLINK_WriteReg(R11, 0x00000000)
T5D1C 000:468.906 - 0.020ms returns 0
T5D1C 000:468.921 JLINK_WriteReg(R12, 0x00000000)
T5D1C 000:468.934 - 0.020ms returns 0
T5D1C 000:468.949 JLINK_WriteReg(R13 (SP), 0x18000C00)
T5D1C 000:468.964 - 0.021ms returns 0
T5D1C 000:468.978 JLINK_WriteReg(R14, 0x18000001)
T5D1C 000:468.992 - 0.020ms returns 0
T5D1C 000:469.009 JLINK_WriteReg(R15 (PC), 0x18000020)
T5D1C 000:469.025 - 0.022ms returns 0
T5D1C 000:469.039 JLINK_WriteReg(XPSR, 0x01000000)
T5D1C 000:469.053 - 0.020ms returns 0
T5D1C 000:469.067 JLINK_WriteReg(MSP, 0x18000C00)
T5D1C 000:469.081 - 0.020ms returns 0
T5D1C 000:469.095 JLINK_WriteReg(PSP, 0x18000C00)
T5D1C 000:469.109 - 0.020ms returns 0
T5D1C 000:469.123 JLINK_WriteReg(CFBP, 0x00000000)
T5D1C 000:469.141 - 0.024ms returns 0
T5D1C 000:469.155 JLINK_SetBPEx(Addr = 0x18000000, Type = 0xFFFFFFF2)
T5D1C 000:469.170 - 0.022ms returns 0x00000001
T5D1C 000:469.185 JLINK_Go()
T5D1C 000:469.209   CPU_WriteMem(4 bytes @ 0xE0002000)
T5D1C 000:469.811   CPU_ReadMem(4 bytes @ 0xE0001000)
T5D1C 000:470.379   CPU_WriteMem(4 bytes @ 0xE0002008)
T5D1C 000:470.402   CPU_WriteMem(4 bytes @ 0xE000200C)
T5D1C 000:471.099   CPU_WriteMem(4 bytes @ 0xE0001004)
T5D1C 000:473.905 - 4.739ms
T5D1C 000:473.935 JLINK_IsHalted()
T5D1C 000:476.191 - 2.266ms returns TRUE
T5D1C 000:476.210 JLINK_ReadReg(R15 (PC))
T5D1C 000:476.227 - 0.024ms returns 0x18000000
T5D1C 000:476.242 JLINK_ClrBPEx(BPHandle = 0x00000001)
T5D1C 000:476.257 - 0.021ms returns 0x00
T5D1C 000:476.271 JLINK_ReadReg(R0)
T5D1C 000:476.285 - 0.020ms returns 0x00000000
T5D1C 000:476.815 JLINK_HasError()
T5D1C 000:476.841 JLINK_WriteReg(R0, 0x11000000)
T5D1C 000:476.858 - 0.023ms returns 0
T5D1C 000:476.873 JLINK_WriteReg(R1, 0x00B71B00)
T5D1C 000:476.887 - 0.020ms returns 0
T5D1C 000:476.901 JLINK_WriteReg(R2, 0x00000001)
T5D1C 000:476.915 - 0.020ms returns 0
T5D1C 000:476.929 JLINK_WriteReg(R3, 0x00000000)
T5D1C 000:476.943 - 0.020ms returns 0
T5D1C 000:476.957 JLINK_WriteReg(R4, 0x00000000)
T5D1C 000:476.971 - 0.020ms returns 0
T5D1C 000:476.985 JLINK_WriteReg(R5, 0x00000000)
T5D1C 000:476.999 - 0.020ms returns 0
T5D1C 000:477.013 JLINK_WriteReg(R6, 0x00000000)
T5D1C 000:477.027 - 0.020ms returns 0
T5D1C 000:477.041 JLINK_WriteReg(R7, 0x00000000)
T5D1C 000:477.055 - 0.020ms returns 0
T5D1C 000:477.069 JLINK_WriteReg(R8, 0x00000000)
T5D1C 000:477.083 - 0.020ms returns 0
T5D1C 000:477.097 JLINK_WriteReg(R9, 0x180000B4)
T5D1C 000:477.111 - 0.020ms returns 0
T5D1C 000:477.125 JLINK_WriteReg(R10, 0x00000000)
T5D1C 000:477.149 - 0.030ms returns 0
T5D1C 000:477.163 JLINK_WriteReg(R11, 0x00000000)
T5D1C 000:477.177 - 0.020ms returns 0
T5D1C 000:477.192 JLINK_WriteReg(R12, 0x00000000)
T5D1C 000:477.205 - 0.020ms returns 0
T5D1C 000:477.220 JLINK_WriteReg(R13 (SP), 0x18000C00)
T5D1C 000:477.234 - 0.021ms returns 0
T5D1C 000:477.248 JLINK_WriteReg(R14, 0x18000001)
T5D1C 000:477.262 - 0.020ms returns 0
T5D1C 000:477.277 JLINK_WriteReg(R15 (PC), 0x18000028)
T5D1C 000:477.291 - 0.020ms returns 0
T5D1C 000:477.305 JLINK_WriteReg(XPSR, 0x01000000)
T5D1C 000:477.319 - 0.021ms returns 0
T5D1C 000:477.333 JLINK_WriteReg(MSP, 0x18000C00)
T5D1C 000:477.347 - 0.020ms returns 0
T5D1C 000:477.361 JLINK_WriteReg(PSP, 0x18000C00)
T5D1C 000:477.375 - 0.020ms returns 0
T5D1C 000:477.389 JLINK_WriteReg(CFBP, 0x00000000)
T5D1C 000:477.403 - 0.020ms returns 0
T5D1C 000:477.417 JLINK_SetBPEx(Addr = 0x18000000, Type = 0xFFFFFFF2)
T5D1C 000:477.432 - 0.021ms returns 0x00000002
T5D1C 000:477.447 JLINK_Go()
T5D1C 000:477.466   CPU_WriteMem(4 bytes @ 0xE0002000)
T5D1C 000:477.981   CPU_ReadMem(4 bytes @ 0xE0001000)
T5D1C 000:480.795 - 3.367ms
T5D1C 000:480.825 JLINK_IsHalted()
T5D1C 000:481.300 - 0.499ms returns FALSE
T5D1C 000:481.339 JLINK_HasError()
T5D1C 000:497.160 JLINK_IsHalted()
T5D1C 000:497.701 - 0.564ms returns FALSE
T5D1C 000:497.735 JLINK_HasError()
T5D1C 000:499.216 JLINK_IsHalted()
T5D1C 000:499.646 - 0.448ms returns FALSE
T5D1C 000:499.674 JLINK_HasError()
T5D1C 000:501.205 JLINK_IsHalted()
T5D1C 000:501.665 - 0.473ms returns FALSE
T5D1C 000:501.687 JLINK_HasError()
T5D1C 000:503.212 JLINK_IsHalted()
T5D1C 000:503.706 - 0.501ms returns FALSE
T5D1C 000:503.722 JLINK_HasError()
T5D1C 000:505.498 JLINK_IsHalted()
T5D1C 000:506.218 - 0.728ms returns FALSE
T5D1C 000:506.236 JLINK_HasError()
T5D1C 000:507.516 JLINK_IsHalted()
T5D1C 000:508.067 - 0.560ms returns FALSE
T5D1C 000:508.086 JLINK_HasError()
T5D1C 000:509.538 JLINK_IsHalted()
T5D1C 000:510.012 - 0.483ms returns FALSE
T5D1C 000:510.030 JLINK_HasError()
T5D1C 000:511.512 JLINK_IsHalted()
T5D1C 000:513.837 - 2.354ms returns TRUE
T5D1C 000:513.881 JLINK_ReadReg(R15 (PC))
T5D1C 000:513.905 - 0.034ms returns 0x18000000
T5D1C 000:513.928 JLINK_ClrBPEx(BPHandle = 0x00000002)
T5D1C 000:513.950 - 0.032ms returns 0x00
T5D1C 000:513.972 JLINK_ReadReg(R0)
T5D1C 000:513.993 - 0.031ms returns 0x00000000
T5D1C 000:568.290 JLINK_HasError()
T5D1C 000:568.329 JLINK_WriteReg(R0, 0x00000001)
T5D1C 000:568.348 - 0.025ms returns 0
T5D1C 000:568.362 JLINK_WriteReg(R1, 0x00B71B00)
T5D1C 000:568.376 - 0.019ms returns 0
T5D1C 000:568.390 JLINK_WriteReg(R2, 0x00000001)
T5D1C 000:568.403 - 0.019ms returns 0
T5D1C 000:568.417 JLINK_WriteReg(R3, 0x00000000)
T5D1C 000:568.430 - 0.019ms returns 0
T5D1C 000:568.444 JLINK_WriteReg(R4, 0x00000000)
T5D1C 000:568.457 - 0.019ms returns 0
T5D1C 000:568.471 JLINK_WriteReg(R5, 0x00000000)
T5D1C 000:568.485 - 0.021ms returns 0
T5D1C 000:568.499 JLINK_WriteReg(R6, 0x00000000)
T5D1C 000:568.513 - 0.020ms returns 0
T5D1C 000:568.528 JLINK_WriteReg(R7, 0x00000000)
T5D1C 000:568.542 - 0.021ms returns 0
T5D1C 000:568.556 JLINK_WriteReg(R8, 0x00000000)
T5D1C 000:568.570 - 0.022ms returns 0
T5D1C 000:568.589 JLINK_WriteReg(R9, 0x180000B4)
T5D1C 000:568.609 - 0.028ms returns 0
T5D1C 000:568.625 JLINK_WriteReg(R10, 0x00000000)
T5D1C 000:568.638 - 0.020ms returns 0
T5D1C 000:568.653 JLINK_WriteReg(R11, 0x00000000)
T5D1C 000:568.666 - 0.020ms returns 0
T5D1C 000:568.681 JLINK_WriteReg(R12, 0x00000000)
T5D1C 000:568.695 - 0.020ms returns 0
T5D1C 000:568.709 JLINK_WriteReg(R13 (SP), 0x18000C00)
T5D1C 000:568.724 - 0.021ms returns 0
T5D1C 000:568.738 JLINK_WriteReg(R14, 0x18000001)
T5D1C 000:568.752 - 0.020ms returns 0
T5D1C 000:568.766 JLINK_WriteReg(R15 (PC), 0x18000024)
T5D1C 000:568.780 - 0.021ms returns 0
T5D1C 000:568.795 JLINK_WriteReg(XPSR, 0x01000000)
T5D1C 000:568.809 - 0.020ms returns 0
T5D1C 000:568.823 JLINK_WriteReg(MSP, 0x18000C00)
T5D1C 000:568.837 - 0.020ms returns 0
T5D1C 000:568.851 JLINK_WriteReg(PSP, 0x18000C00)
T5D1C 000:568.865 - 0.020ms returns 0
T5D1C 000:568.879 JLINK_WriteReg(CFBP, 0x00000000)
T5D1C 000:568.893 - 0.020ms returns 0
T5D1C 000:568.908 JLINK_SetBPEx(Addr = 0x18000000, Type = 0xFFFFFFF2)
T5D1C 000:568.924 - 0.022ms returns 0x00000003
T5D1C 000:568.938 JLINK_Go()
T5D1C 000:568.960   CPU_WriteMem(4 bytes @ 0xE0002000)
T5D1C 000:569.600   CPU_ReadMem(4 bytes @ 0xE0001000)
T5D1C 000:572.182 - 3.295ms
T5D1C 000:572.247 JLINK_IsHalted()
T5D1C 000:574.624 - 2.410ms returns TRUE
T5D1C 000:574.669 JLINK_ReadReg(R15 (PC))
T5D1C 000:574.687 - 0.024ms returns 0x18000000
T5D1C 000:574.702 JLINK_ClrBPEx(BPHandle = 0x00000003)
T5D1C 000:574.717 - 0.021ms returns 0x00
T5D1C 000:574.732 JLINK_ReadReg(R0)
T5D1C 000:574.746 - 0.020ms returns 0x00000000
T5D1C 000:575.342 JLINK_WriteMem(0x18000000, 0xC8 Bytes, ...)
T5D1C 000:575.363   Data:  00 BE 0A E0 0D 78 2D 06 68 40 08 24 40 00 00 D3 ...
T5D1C 000:575.395   CPU_WriteMem(200 bytes @ 0x18000000)
T5D1C 000:576.753 - 1.437ms returns 0xC8
T5D1C 000:576.829 JLINK_HasError()
T5D1C 000:576.848 JLINK_WriteReg(R0, 0x11008000)
T5D1C 000:576.870 - 0.028ms returns 0
T5D1C 000:576.885 JLINK_WriteReg(R1, 0x00B71B00)
T5D1C 000:576.899 - 0.021ms returns 0
T5D1C 000:576.914 JLINK_WriteReg(R2, 0x00000001)
T5D1C 000:576.929 - 0.022ms returns 0
T5D1C 000:576.944 JLINK_WriteReg(R3, 0x00000000)
T5D1C 000:576.960 - 0.022ms returns 0
T5D1C 000:576.975 JLINK_WriteReg(R4, 0x00000000)
T5D1C 000:576.989 - 0.021ms returns 0
T5D1C 000:577.004 JLINK_WriteReg(R5, 0x00000000)
T5D1C 000:577.017 - 0.020ms returns 0
T5D1C 000:577.032 JLINK_WriteReg(R6, 0x00000000)
T5D1C 000:577.046 - 0.021ms returns 0
T5D1C 000:577.060 JLINK_WriteReg(R7, 0x00000000)
T5D1C 000:577.075 - 0.021ms returns 0
T5D1C 000:577.089 JLINK_WriteReg(R8, 0x00000000)
T5D1C 000:577.104 - 0.027ms returns 0
T5D1C 000:577.127 JLINK_WriteReg(R9, 0x180000A4)
T5D1C 000:577.144 - 0.025ms returns 0
T5D1C 000:577.163 JLINK_WriteReg(R10, 0x00000000)
T5D1C 000:577.177 - 0.021ms returns 0
T5D1C 000:577.192 JLINK_WriteReg(R11, 0x00000000)
T5D1C 000:577.206 - 0.021ms returns 0
T5D1C 000:577.221 JLINK_WriteReg(R12, 0x00000000)
T5D1C 000:577.235 - 0.020ms returns 0
T5D1C 000:577.249 JLINK_WriteReg(R13 (SP), 0x18000C00)
T5D1C 000:577.264 - 0.021ms returns 0
T5D1C 000:577.278 JLINK_WriteReg(R14, 0x18000001)
T5D1C 000:577.292 - 0.021ms returns 0
T5D1C 000:577.307 JLINK_WriteReg(R15 (PC), 0x18000020)
T5D1C 000:577.320 - 0.020ms returns 0
T5D1C 000:577.335 JLINK_WriteReg(XPSR, 0x01000000)
T5D1C 000:577.349 - 0.021ms returns 0
T5D1C 000:577.363 JLINK_WriteReg(MSP, 0x18000C00)
T5D1C 000:577.377 - 0.020ms returns 0
T5D1C 000:577.392 JLINK_WriteReg(PSP, 0x18000C00)
T5D1C 000:577.406 - 0.020ms returns 0
T5D1C 000:577.420 JLINK_WriteReg(CFBP, 0x00000000)
T5D1C 000:577.434 - 0.020ms returns 0
T5D1C 000:577.449 JLINK_SetBPEx(Addr = 0x18000000, Type = 0xFFFFFFF2)
T5D1C 000:577.465 - 0.023ms returns 0x00000004
T5D1C 000:577.480 JLINK_Go()
T5D1C 000:577.501   CPU_WriteMem(4 bytes @ 0xE0002000)
T5D1C 000:578.067   CPU_ReadMem(4 bytes @ 0xE0001000)
T5D1C 000:580.713 - 3.265ms
T5D1C 000:580.756 JLINK_IsHalted()
T5D1C 000:583.037 - 2.292ms returns TRUE
T5D1C 000:583.058 JLINK_ReadReg(R15 (PC))
T5D1C 000:583.073 - 0.022ms returns 0x18000000
T5D1C 000:583.088 JLINK_ClrBPEx(BPHandle = 0x00000004)
T5D1C 000:583.102 - 0.020ms returns 0x00
T5D1C 000:583.116 JLINK_ReadReg(R0)
T5D1C 000:583.130 - 0.020ms returns 0x00000000
T5D1C 000:583.466 JLINK_HasError()
T5D1C 000:583.488 JLINK_WriteReg(R0, 0x11008000)
T5D1C 000:583.504 - 0.022ms returns 0
T5D1C 000:583.519 JLINK_WriteReg(R1, 0x00B71B00)
T5D1C 000:583.546 - 0.034ms returns 0
T5D1C 000:583.561 JLINK_WriteReg(R2, 0x00000001)
T5D1C 000:583.575 - 0.020ms returns 0
T5D1C 000:583.589 JLINK_WriteReg(R3, 0x00000000)
T5D1C 000:583.603 - 0.020ms returns 0
T5D1C 000:583.617 JLINK_WriteReg(R4, 0x00000000)
T5D1C 000:583.631 - 0.020ms returns 0
T5D1C 000:583.645 JLINK_WriteReg(R5, 0x00000000)
T5D1C 000:583.659 - 0.020ms returns 0
T5D1C 000:583.676 JLINK_WriteReg(R6, 0x00000000)
T5D1C 000:583.690 - 0.020ms returns 0
T5D1C 000:583.704 JLINK_WriteReg(R7, 0x00000000)
T5D1C 000:583.718 - 0.020ms returns 0
T5D1C 000:583.732 JLINK_WriteReg(R8, 0x00000000)
T5D1C 000:583.746 - 0.020ms returns 0
T5D1C 000:583.760 JLINK_WriteReg(R9, 0x180000A4)
T5D1C 000:583.774 - 0.020ms returns 0
T5D1C 000:583.788 JLINK_WriteReg(R10, 0x00000000)
T5D1C 000:583.802 - 0.020ms returns 0
T5D1C 000:583.816 JLINK_WriteReg(R11, 0x00000000)
T5D1C 000:583.830 - 0.020ms returns 0
T5D1C 000:583.845 JLINK_WriteReg(R12, 0x00000000)
T5D1C 000:583.859 - 0.020ms returns 0
T5D1C 000:583.873 JLINK_WriteReg(R13 (SP), 0x18000C00)
T5D1C 000:583.887 - 0.021ms returns 0
T5D1C 000:583.901 JLINK_WriteReg(R14, 0x18000001)
T5D1C 000:583.915 - 0.020ms returns 0
T5D1C 000:583.930 JLINK_WriteReg(R15 (PC), 0x18000028)
T5D1C 000:583.944 - 0.020ms returns 0
T5D1C 000:583.958 JLINK_WriteReg(XPSR, 0x01000000)
T5D1C 000:583.972 - 0.020ms returns 0
T5D1C 000:583.986 JLINK_WriteReg(MSP, 0x18000C00)
T5D1C 000:584.000 - 0.020ms returns 0
T5D1C 000:584.014 JLINK_WriteReg(PSP, 0x18000C00)
T5D1C 000:584.028 - 0.020ms returns 0
T5D1C 000:584.043 JLINK_WriteReg(CFBP, 0x00000000)
T5D1C 000:584.056 - 0.020ms returns 0
T5D1C 000:584.071 JLINK_SetBPEx(Addr = 0x18000000, Type = 0xFFFFFFF2)
T5D1C 000:584.086 - 0.022ms returns 0x00000005
T5D1C 000:584.100 JLINK_Go()
T5D1C 000:584.126   CPU_WriteMem(4 bytes @ 0xE0002000)
T5D1C 000:584.606   CPU_ReadMem(4 bytes @ 0xE0001000)
T5D1C 000:587.224 - 3.150ms
T5D1C 000:587.263 JLINK_IsHalted()
T5D1C 000:587.704 - 0.457ms returns FALSE
T5D1C 000:587.732 JLINK_HasError()
T5D1C 000:591.530 JLINK_IsHalted()
T5D1C 000:593.832 - 2.312ms returns TRUE
T5D1C 000:593.857 JLINK_ReadReg(R15 (PC))
T5D1C 000:593.874 - 0.024ms returns 0x18000000
T5D1C 000:593.891 JLINK_ClrBPEx(BPHandle = 0x00000005)
T5D1C 000:593.912 - 0.027ms returns 0x00
T5D1C 000:593.928 JLINK_ReadReg(R0)
T5D1C 000:593.942 - 0.021ms returns 0x00000000
T5D1C 000:646.890 JLINK_HasError()
T5D1C 000:646.928 JLINK_WriteReg(R0, 0x00000001)
T5D1C 000:646.947 - 0.026ms returns 0
T5D1C 000:646.962 JLINK_WriteReg(R1, 0x00B71B00)
T5D1C 000:646.975 - 0.020ms returns 0
T5D1C 000:646.989 JLINK_WriteReg(R2, 0x00000001)
T5D1C 000:647.003 - 0.025ms returns 0
T5D1C 000:647.024 JLINK_WriteReg(R3, 0x00000000)
T5D1C 000:647.057 - 0.041ms returns 0
T5D1C 000:647.076 JLINK_WriteReg(R4, 0x00000000)
T5D1C 000:647.094 - 0.027ms returns 0
T5D1C 000:647.116 JLINK_WriteReg(R5, 0x00000000)
T5D1C 000:647.134 - 0.027ms returns 0
T5D1C 000:647.153 JLINK_WriteReg(R6, 0x00000000)
T5D1C 000:647.173 - 0.029ms returns 0
T5D1C 000:647.193 JLINK_WriteReg(R7, 0x00000000)
T5D1C 000:647.213 - 0.029ms returns 0
T5D1C 000:647.233 JLINK_WriteReg(R8, 0x00000000)
T5D1C 000:647.253 - 0.030ms returns 0
T5D1C 000:647.274 JLINK_WriteReg(R9, 0x180000A4)
T5D1C 000:647.294 - 0.028ms returns 0
T5D1C 000:647.313 JLINK_WriteReg(R10, 0x00000000)
T5D1C 000:647.333 - 0.028ms returns 0
T5D1C 000:647.353 JLINK_WriteReg(R11, 0x00000000)
T5D1C 000:647.372 - 0.028ms returns 0
T5D1C 000:647.391 JLINK_WriteReg(R12, 0x00000000)
T5D1C 000:647.409 - 0.027ms returns 0
T5D1C 000:647.428 JLINK_WriteReg(R13 (SP), 0x18000C00)
T5D1C 000:647.448 - 0.028ms returns 0
T5D1C 000:647.467 JLINK_WriteReg(R14, 0x18000001)
T5D1C 000:647.487 - 0.029ms returns 0
T5D1C 000:647.507 JLINK_WriteReg(R15 (PC), 0x18000024)
T5D1C 000:647.526 - 0.028ms returns 0
T5D1C 000:647.545 JLINK_WriteReg(XPSR, 0x01000000)
T5D1C 000:647.565 - 0.029ms returns 0
T5D1C 000:647.586 JLINK_WriteReg(MSP, 0x18000C00)
T5D1C 000:647.606 - 0.030ms returns 0
T5D1C 000:647.626 JLINK_WriteReg(PSP, 0x18000C00)
T5D1C 000:647.647 - 0.029ms returns 0
T5D1C 000:647.667 JLINK_WriteReg(CFBP, 0x00000000)
T5D1C 000:647.686 - 0.028ms returns 0
T5D1C 000:647.707 JLINK_SetBPEx(Addr = 0x18000000, Type = 0xFFFFFFF2)
T5D1C 000:647.730 - 0.032ms returns 0x00000006
T5D1C 000:647.751 JLINK_Go()
T5D1C 000:647.784   CPU_WriteMem(4 bytes @ 0xE0002000)
T5D1C 000:648.583   CPU_ReadMem(4 bytes @ 0xE0001000)
T5D1C 000:651.792 - 4.061ms
T5D1C 000:651.824 JLINK_IsHalted()
T5D1C 000:654.292 - 2.484ms returns TRUE
T5D1C 000:654.318 JLINK_ReadReg(R15 (PC))
T5D1C 000:654.338 - 0.026ms returns 0x18000000
T5D1C 000:654.353 JLINK_ClrBPEx(BPHandle = 0x00000006)
T5D1C 000:654.367 - 0.020ms returns 0x00
T5D1C 000:654.381 JLINK_ReadReg(R0)
T5D1C 000:654.396 - 0.022ms returns 0x00000000
T5D1C 000:659.796 JLINK_WriteMem(0x18000000, 0xD8 Bytes, ...)
T5D1C 000:659.825   Data:  00 BE 0A E0 0D 78 2D 06 68 40 08 24 40 00 00 D3 ...
T5D1C 000:659.862   CPU_WriteMem(216 bytes @ 0x18000000)
T5D1C 000:661.348 - 1.561ms returns 0xD8
T5D1C 000:661.384 JLINK_HasError()
T5D1C 000:661.400 JLINK_WriteReg(R0, 0x11000000)
T5D1C 000:661.417 - 0.024ms returns 0
T5D1C 000:661.432 JLINK_WriteReg(R1, 0x00B71B00)
T5D1C 000:661.448 - 0.022ms returns 0
T5D1C 000:661.462 JLINK_WriteReg(R2, 0x00000002)
T5D1C 000:661.477 - 0.021ms returns 0
T5D1C 000:661.492 JLINK_WriteReg(R3, 0x00000000)
T5D1C 000:661.507 - 0.022ms returns 0
T5D1C 000:661.522 JLINK_WriteReg(R4, 0x00000000)
T5D1C 000:661.538 - 0.022ms returns 0
T5D1C 000:661.553 JLINK_WriteReg(R5, 0x00000000)
T5D1C 000:661.568 - 0.021ms returns 0
T5D1C 000:661.583 JLINK_WriteReg(R6, 0x00000000)
T5D1C 000:661.597 - 0.021ms returns 0
T5D1C 000:661.613 JLINK_WriteReg(R7, 0x00000000)
T5D1C 000:661.627 - 0.021ms returns 0
T5D1C 000:661.642 JLINK_WriteReg(R8, 0x00000000)
T5D1C 000:661.658 - 0.022ms returns 0
T5D1C 000:661.672 JLINK_WriteReg(R9, 0x180000B4)
T5D1C 000:661.687 - 0.022ms returns 0
T5D1C 000:661.702 JLINK_WriteReg(R10, 0x00000000)
T5D1C 000:661.718 - 0.022ms returns 0
T5D1C 000:661.733 JLINK_WriteReg(R11, 0x00000000)
T5D1C 000:661.747 - 0.021ms returns 0
T5D1C 000:661.762 JLINK_WriteReg(R12, 0x00000000)
T5D1C 000:661.776 - 0.020ms returns 0
T5D1C 000:661.791 JLINK_WriteReg(R13 (SP), 0x18000C00)
T5D1C 000:661.811 - 0.027ms returns 0
T5D1C 000:661.825 JLINK_WriteReg(R14, 0x18000001)
T5D1C 000:661.839 - 0.020ms returns 0
T5D1C 000:661.853 JLINK_WriteReg(R15 (PC), 0x18000020)
T5D1C 000:661.868 - 0.021ms returns 0
T5D1C 000:661.882 JLINK_WriteReg(XPSR, 0x01000000)
T5D1C 000:661.896 - 0.020ms returns 0
T5D1C 000:661.910 JLINK_WriteReg(MSP, 0x18000C00)
T5D1C 000:661.924 - 0.020ms returns 0
T5D1C 000:661.938 JLINK_WriteReg(PSP, 0x18000C00)
T5D1C 000:661.952 - 0.020ms returns 0
T5D1C 000:661.967 JLINK_WriteReg(CFBP, 0x00000000)
T5D1C 000:661.980 - 0.020ms returns 0
T5D1C 000:661.995 JLINK_SetBPEx(Addr = 0x18000000, Type = 0xFFFFFFF2)
T5D1C 000:662.010 - 0.022ms returns 0x00000007
T5D1C 000:662.030 JLINK_Go()
T5D1C 000:662.056   CPU_WriteMem(4 bytes @ 0xE0002000)
T5D1C 000:662.582   CPU_ReadMem(4 bytes @ 0xE0001000)
T5D1C 000:665.367 - 3.357ms
T5D1C 000:665.398 JLINK_IsHalted()
T5D1C 000:667.979 - 2.594ms returns TRUE
T5D1C 000:668.001 JLINK_ReadReg(R15 (PC))
T5D1C 000:668.017 - 0.023ms returns 0x18000000
T5D1C 000:668.032 JLINK_ClrBPEx(BPHandle = 0x00000007)
T5D1C 000:668.046 - 0.020ms returns 0x00
T5D1C 000:668.060 JLINK_ReadReg(R0)
T5D1C 000:668.074 - 0.021ms returns 0x00000000
T5D1C 000:668.378 JLINK_WriteMem(0x180000D8, 0x80 Bytes, ...)
T5D1C 000:668.399   Data:  38 0A 00 18 99 00 00 11 A3 00 00 11 27 35 00 11 ...
T5D1C 000:668.430   CPU_WriteMem(128 bytes @ 0x180000D8)
T5D1C 000:669.724 - 1.355ms returns 0x80
T5D1C 000:669.742 JLINK_HasError()
T5D1C 000:669.757 JLINK_WriteReg(R0, 0x11000000)
T5D1C 000:669.772 - 0.022ms returns 0
T5D1C 000:669.787 JLINK_WriteReg(R1, 0x00000080)
T5D1C 000:669.801 - 0.020ms returns 0
T5D1C 000:669.815 JLINK_WriteReg(R2, 0x180000D8)
T5D1C 000:669.829 - 0.020ms returns 0
T5D1C 000:669.844 JLINK_WriteReg(R3, 0x00000000)
T5D1C 000:669.858 - 0.020ms returns 0
T5D1C 000:669.872 JLINK_WriteReg(R4, 0x00000000)
T5D1C 000:669.886 - 0.020ms returns 0
T5D1C 000:669.900 JLINK_WriteReg(R5, 0x00000000)
T5D1C 000:669.914 - 0.020ms returns 0
T5D1C 000:669.928 JLINK_WriteReg(R6, 0x00000000)
T5D1C 000:669.942 - 0.020ms returns 0
T5D1C 000:669.956 JLINK_WriteReg(R7, 0x00000000)
T5D1C 000:669.970 - 0.020ms returns 0
T5D1C 000:669.985 JLINK_WriteReg(R8, 0x00000000)
T5D1C 000:669.999 - 0.020ms returns 0
T5D1C 000:670.013 JLINK_WriteReg(R9, 0x180000B4)
T5D1C 000:670.027 - 0.020ms returns 0
T5D1C 000:670.070 JLINK_WriteReg(R10, 0x00000000)
T5D1C 000:670.085 - 0.022ms returns 0
T5D1C 000:670.100 JLINK_WriteReg(R11, 0x00000000)
T5D1C 000:670.114 - 0.021ms returns 0
T5D1C 000:670.128 JLINK_WriteReg(R12, 0x00000000)
T5D1C 000:670.142 - 0.020ms returns 0
T5D1C 000:670.156 JLINK_WriteReg(R13 (SP), 0x18000C00)
T5D1C 000:670.171 - 0.021ms returns 0
T5D1C 000:670.185 JLINK_WriteReg(R14, 0x18000001)
T5D1C 000:670.199 - 0.020ms returns 0
T5D1C 000:670.213 JLINK_WriteReg(R15 (PC), 0x18000056)
T5D1C 000:670.227 - 0.020ms returns 0
T5D1C 000:670.241 JLINK_WriteReg(XPSR, 0x01000000)
T5D1C 000:670.255 - 0.020ms returns 0
T5D1C 000:670.269 JLINK_WriteReg(MSP, 0x18000C00)
T5D1C 000:670.283 - 0.020ms returns 0
T5D1C 000:670.297 JLINK_WriteReg(PSP, 0x18000C00)
T5D1C 000:670.311 - 0.020ms returns 0
T5D1C 000:670.326 JLINK_WriteReg(CFBP, 0x00000000)
T5D1C 000:670.340 - 0.021ms returns 0
T5D1C 000:670.355 JLINK_SetBPEx(Addr = 0x18000000, Type = 0xFFFFFFF2)
T5D1C 000:670.371 - 0.023ms returns 0x00000008
T5D1C 000:670.386 JLINK_Go()
T5D1C 000:670.403   CPU_WriteMem(4 bytes @ 0xE0002000)
T5D1C 000:670.923   CPU_ReadMem(4 bytes @ 0xE0001000)
T5D1C 000:673.622 - 3.270ms
T5D1C 000:673.667 JLINK_IsHalted()
T5D1C 000:674.217 - 0.558ms returns FALSE
T5D1C 000:674.236 JLINK_HasError()
T5D1C 000:678.006 JLINK_IsHalted()
T5D1C 000:680.378 - 2.393ms returns TRUE
T5D1C 000:680.410 JLINK_ReadReg(R15 (PC))
T5D1C 000:680.427 - 0.024ms returns 0x18000000
T5D1C 000:680.442 JLINK_ClrBPEx(BPHandle = 0x00000008)
T5D1C 000:680.457 - 0.021ms returns 0x00
T5D1C 000:680.472 JLINK_ReadReg(R0)
T5D1C 000:680.486 - 0.020ms returns 0x00000000
T5D1C 000:681.003 JLINK_WriteMem(0x180000D8, 0x80 Bytes, ...)
T5D1C 000:681.028   Data:  DF F8 10 D0 00 F0 1E FB 00 48 00 47 8D 59 00 11 ...
T5D1C 000:681.057   CPU_WriteMem(128 bytes @ 0x180000D8)
T5D1C 000:682.251 - 1.256ms returns 0x80
T5D1C 000:682.269 JLINK_HasError()
T5D1C 000:682.285 JLINK_WriteReg(R0, 0x11000080)
T5D1C 000:682.300 - 0.022ms returns 0
T5D1C 000:682.314 JLINK_WriteReg(R1, 0x00000080)
T5D1C 000:682.328 - 0.020ms returns 0
T5D1C 000:682.343 JLINK_WriteReg(R2, 0x180000D8)
T5D1C 000:682.357 - 0.020ms returns 0
T5D1C 000:682.371 JLINK_WriteReg(R3, 0x00000000)
T5D1C 000:682.389 - 0.025ms returns 0
T5D1C 000:682.404 JLINK_WriteReg(R4, 0x00000000)
T5D1C 000:682.418 - 0.020ms returns 0
T5D1C 000:682.432 JLINK_WriteReg(R5, 0x00000000)
T5D1C 000:682.446 - 0.021ms returns 0
T5D1C 000:682.460 JLINK_WriteReg(R6, 0x00000000)
T5D1C 000:682.474 - 0.020ms returns 0
T5D1C 000:682.488 JLINK_WriteReg(R7, 0x00000000)
T5D1C 000:682.502 - 0.020ms returns 0
T5D1C 000:682.516 JLINK_WriteReg(R8, 0x00000000)
T5D1C 000:682.530 - 0.020ms returns 0
T5D1C 000:682.544 JLINK_WriteReg(R9, 0x180000B4)
T5D1C 000:682.558 - 0.020ms returns 0
T5D1C 000:682.572 JLINK_WriteReg(R10, 0x00000000)
T5D1C 000:682.586 - 0.021ms returns 0
T5D1C 000:682.600 JLINK_WriteReg(R11, 0x00000000)
T5D1C 000:682.614 - 0.020ms returns 0
T5D1C 000:682.628 JLINK_WriteReg(R12, 0x00000000)
T5D1C 000:682.642 - 0.020ms returns 0
T5D1C 000:682.657 JLINK_WriteReg(R13 (SP), 0x18000C00)
T5D1C 000:682.671 - 0.021ms returns 0
T5D1C 000:682.685 JLINK_WriteReg(R14, 0x18000001)
T5D1C 000:682.699 - 0.020ms returns 0
T5D1C 000:682.714 JLINK_WriteReg(R15 (PC), 0x18000056)
T5D1C 000:682.727 - 0.020ms returns 0
T5D1C 000:682.742 JLINK_WriteReg(XPSR, 0x01000000)
T5D1C 000:682.756 - 0.020ms returns 0
T5D1C 000:682.770 JLINK_WriteReg(MSP, 0x18000C00)
T5D1C 000:682.784 - 0.020ms returns 0
T5D1C 000:682.798 JLINK_WriteReg(PSP, 0x18000C00)
T5D1C 000:682.812 - 0.020ms returns 0
T5D1C 000:682.826 JLINK_WriteReg(CFBP, 0x00000000)
T5D1C 000:682.840 - 0.020ms returns 0
T5D1C 000:682.854 JLINK_SetBPEx(Addr = 0x18000000, Type = 0xFFFFFFF2)
T5D1C 000:682.869 - 0.021ms returns 0x00000009
T5D1C 000:682.884 JLINK_Go()
T5D1C 000:682.900   CPU_WriteMem(4 bytes @ 0xE0002000)
T5D1C 000:683.399   CPU_ReadMem(4 bytes @ 0xE0001000)
T5D1C 000:686.088 - 3.222ms
T5D1C 000:686.116 JLINK_IsHalted()
T5D1C 000:686.597 - 0.489ms returns FALSE
T5D1C 000:686.614 JLINK_HasError()
T5D1C 000:687.997 JLINK_IsHalted()
T5D1C 000:688.483 - 0.499ms returns FALSE
T5D1C 000:688.507 JLINK_HasError()
T5D1C 000:690.062 JLINK_IsHalted()
T5D1C 000:692.536 - 2.500ms returns TRUE
T5D1C 000:692.579 JLINK_ReadReg(R15 (PC))
T5D1C 000:692.603 - 0.035ms returns 0x18000000
T5D1C 000:692.626 JLINK_ClrBPEx(BPHandle = 0x00000009)
T5D1C 000:692.649 - 0.033ms returns 0x00
T5D1C 000:692.672 JLINK_ReadReg(R0)
T5D1C 000:692.694 - 0.032ms returns 0x00000000
T5D1C 000:693.340 JLINK_WriteMem(0x180000D8, 0x80 Bytes, ...)
T5D1C 000:693.371   Data:  F9 D2 70 47 D2 B2 01 E0 00 F8 01 2B 49 1E FB D2 ...
T5D1C 000:693.403   CPU_WriteMem(128 bytes @ 0x180000D8)
T5D1C 000:694.541 - 1.218ms returns 0x80
T5D1C 000:694.569 JLINK_HasError()
T5D1C 000:694.584 JLINK_WriteReg(R0, 0x11000100)
T5D1C 000:694.602 - 0.023ms returns 0
T5D1C 000:694.616 JLINK_WriteReg(R1, 0x00000080)
T5D1C 000:694.630 - 0.021ms returns 0
T5D1C 000:694.645 JLINK_WriteReg(R2, 0x180000D8)
T5D1C 000:694.658 - 0.020ms returns 0
T5D1C 000:694.673 JLINK_WriteReg(R3, 0x00000000)
T5D1C 000:694.687 - 0.021ms returns 0
T5D1C 000:694.702 JLINK_WriteReg(R4, 0x00000000)
T5D1C 000:694.716 - 0.021ms returns 0
T5D1C 000:694.730 JLINK_WriteReg(R5, 0x00000000)
T5D1C 000:694.744 - 0.020ms returns 0
T5D1C 000:694.759 JLINK_WriteReg(R6, 0x00000000)
T5D1C 000:694.772 - 0.020ms returns 0
T5D1C 000:694.787 JLINK_WriteReg(R7, 0x00000000)
T5D1C 000:694.800 - 0.020ms returns 0
T5D1C 000:694.815 JLINK_WriteReg(R8, 0x00000000)
T5D1C 000:694.829 - 0.020ms returns 0
T5D1C 000:694.843 JLINK_WriteReg(R9, 0x180000B4)
T5D1C 000:694.861 - 0.027ms returns 0
T5D1C 000:694.877 JLINK_WriteReg(R10, 0x00000000)
T5D1C 000:694.891 - 0.020ms returns 0
T5D1C 000:694.906 JLINK_WriteReg(R11, 0x00000000)
T5D1C 000:694.920 - 0.020ms returns 0
T5D1C 000:694.934 JLINK_WriteReg(R12, 0x00000000)
T5D1C 000:694.948 - 0.020ms returns 0
T5D1C 000:694.962 JLINK_WriteReg(R13 (SP), 0x18000C00)
T5D1C 000:694.977 - 0.021ms returns 0
T5D1C 000:694.991 JLINK_WriteReg(R14, 0x18000001)
T5D1C 000:695.005 - 0.020ms returns 0
T5D1C 000:695.019 JLINK_WriteReg(R15 (PC), 0x18000056)
T5D1C 000:695.033 - 0.020ms returns 0
T5D1C 000:695.080 JLINK_WriteReg(XPSR, 0x01000000)
T5D1C 000:695.095 - 0.021ms returns 0
T5D1C 000:695.109 JLINK_WriteReg(MSP, 0x18000C00)
T5D1C 000:695.123 - 0.020ms returns 0
T5D1C 000:695.138 JLINK_WriteReg(PSP, 0x18000C00)
T5D1C 000:695.152 - 0.020ms returns 0
T5D1C 000:695.166 JLINK_WriteReg(CFBP, 0x00000000)
T5D1C 000:695.180 - 0.020ms returns 0
T5D1C 000:695.195 JLINK_SetBPEx(Addr = 0x18000000, Type = 0xFFFFFFF2)
T5D1C 000:695.210 - 0.021ms returns 0x0000000A
T5D1C 000:695.224 JLINK_Go()
T5D1C 000:695.242   CPU_WriteMem(4 bytes @ 0xE0002000)
T5D1C 000:695.763   CPU_ReadMem(4 bytes @ 0xE0001000)
T5D1C 000:698.475 - 3.264ms
T5D1C 000:698.499 JLINK_IsHalted()
T5D1C 000:698.894 - 0.403ms returns FALSE
T5D1C 000:698.911 JLINK_HasError()
T5D1C 000:700.000 JLINK_IsHalted()
T5D1C 000:700.471 - 0.481ms returns FALSE
T5D1C 000:700.490 JLINK_HasError()
T5D1C 000:702.050 JLINK_IsHalted()
T5D1C 000:704.365 - 2.327ms returns TRUE
T5D1C 000:704.386 JLINK_ReadReg(R15 (PC))
T5D1C 000:704.402 - 0.023ms returns 0x18000000
T5D1C 000:704.417 JLINK_ClrBPEx(BPHandle = 0x0000000A)
T5D1C 000:704.432 - 0.021ms returns 0x00
T5D1C 000:704.447 JLINK_ReadReg(R0)
T5D1C 000:704.462 - 0.021ms returns 0x00000000
T5D1C 000:705.047 JLINK_WriteMem(0x180000D8, 0x80 Bytes, ...)
T5D1C 000:705.074   Data:  01 00 00 29 00 DA 00 20 18 43 10 BD 30 B4 80 EA ...
T5D1C 000:705.107   CPU_WriteMem(128 bytes @ 0x180000D8)
T5D1C 000:706.275 - 1.243ms returns 0x80
T5D1C 000:706.302 JLINK_HasError()
T5D1C 000:706.318 JLINK_WriteReg(R0, 0x11000180)
T5D1C 000:706.335 - 0.023ms returns 0
T5D1C 000:706.349 JLINK_WriteReg(R1, 0x00000080)
T5D1C 000:706.364 - 0.021ms returns 0
T5D1C 000:706.378 JLINK_WriteReg(R2, 0x180000D8)
T5D1C 000:706.392 - 0.021ms returns 0
T5D1C 000:706.407 JLINK_WriteReg(R3, 0x00000000)
T5D1C 000:706.421 - 0.020ms returns 0
T5D1C 000:706.435 JLINK_WriteReg(R4, 0x00000000)
T5D1C 000:706.449 - 0.021ms returns 0
T5D1C 000:706.464 JLINK_WriteReg(R5, 0x00000000)
T5D1C 000:706.478 - 0.021ms returns 0
T5D1C 000:706.493 JLINK_WriteReg(R6, 0x00000000)
T5D1C 000:706.507 - 0.021ms returns 0
T5D1C 000:706.521 JLINK_WriteReg(R7, 0x00000000)
T5D1C 000:706.535 - 0.021ms returns 0
T5D1C 000:706.567 JLINK_WriteReg(R8, 0x00000000)
T5D1C 000:706.582 - 0.021ms returns 0
T5D1C 000:706.596 JLINK_WriteReg(R9, 0x180000B4)
T5D1C 000:706.610 - 0.021ms returns 0
T5D1C 000:706.625 JLINK_WriteReg(R10, 0x00000000)
T5D1C 000:706.639 - 0.021ms returns 0
T5D1C 000:706.654 JLINK_WriteReg(R11, 0x00000000)
T5D1C 000:706.668 - 0.021ms returns 0
T5D1C 000:706.682 JLINK_WriteReg(R12, 0x00000000)
T5D1C 000:706.697 - 0.021ms returns 0
T5D1C 000:706.711 JLINK_WriteReg(R13 (SP), 0x18000C00)
T5D1C 000:706.726 - 0.021ms returns 0
T5D1C 000:706.740 JLINK_WriteReg(R14, 0x18000001)
T5D1C 000:706.754 - 0.021ms returns 0
T5D1C 000:706.769 JLINK_WriteReg(R15 (PC), 0x18000056)
T5D1C 000:706.783 - 0.021ms returns 0
T5D1C 000:706.798 JLINK_WriteReg(XPSR, 0x01000000)
T5D1C 000:706.813 - 0.021ms returns 0
T5D1C 000:706.827 JLINK_WriteReg(MSP, 0x18000C00)
T5D1C 000:706.842 - 0.022ms returns 0
T5D1C 000:706.857 JLINK_WriteReg(PSP, 0x18000C00)
T5D1C 000:706.871 - 0.021ms returns 0
T5D1C 000:706.887 JLINK_WriteReg(CFBP, 0x00000000)
T5D1C 000:706.901 - 0.021ms returns 0
T5D1C 000:706.916 JLINK_SetBPEx(Addr = 0x18000000, Type = 0xFFFFFFF2)
T5D1C 000:706.932 - 0.022ms returns 0x0000000B
T5D1C 000:706.947 JLINK_Go()
T5D1C 000:706.965   CPU_WriteMem(4 bytes @ 0xE0002000)
T5D1C 000:707.482   CPU_ReadMem(4 bytes @ 0xE0001000)
T5D1C 000:710.199 - 3.278ms
T5D1C 000:710.236 JLINK_IsHalted()
T5D1C 000:710.724 - 0.504ms returns FALSE
T5D1C 000:710.751 JLINK_HasError()
T5D1C 000:713.625 JLINK_IsHalted()
T5D1C 000:716.005 - 2.392ms returns TRUE
T5D1C 000:716.027 JLINK_ReadReg(R15 (PC))
T5D1C 000:716.043 - 0.023ms returns 0x18000000
T5D1C 000:716.059 JLINK_ClrBPEx(BPHandle = 0x0000000B)
T5D1C 000:716.073 - 0.021ms returns 0x00
T5D1C 000:716.088 JLINK_ReadReg(R0)
T5D1C 000:716.102 - 0.020ms returns 0x00000000
T5D1C 000:716.541 JLINK_WriteMem(0x180000D8, 0x80 Bytes, ...)
T5D1C 000:716.561   Data:  28 44 30 BC 00 F0 C9 B9 42 00 05 D0 C0 F3 C7 52 ...
T5D1C 000:716.591   CPU_WriteMem(128 bytes @ 0x180000D8)
T5D1C 000:717.631 - 1.105ms returns 0x80
T5D1C 000:717.658 JLINK_HasError()
T5D1C 000:717.673 JLINK_WriteReg(R0, 0x11000200)
T5D1C 000:717.689 - 0.022ms returns 0
T5D1C 000:717.704 JLINK_WriteReg(R1, 0x00000080)
T5D1C 000:717.718 - 0.020ms returns 0
T5D1C 000:717.732 JLINK_WriteReg(R2, 0x180000D8)
T5D1C 000:717.746 - 0.020ms returns 0
T5D1C 000:717.760 JLINK_WriteReg(R3, 0x00000000)
T5D1C 000:717.774 - 0.020ms returns 0
T5D1C 000:717.788 JLINK_WriteReg(R4, 0x00000000)
T5D1C 000:717.802 - 0.020ms returns 0
T5D1C 000:717.816 JLINK_WriteReg(R5, 0x00000000)
T5D1C 000:717.830 - 0.020ms returns 0
T5D1C 000:717.844 JLINK_WriteReg(R6, 0x00000000)
T5D1C 000:717.858 - 0.020ms returns 0
T5D1C 000:717.873 JLINK_WriteReg(R7, 0x00000000)
T5D1C 000:717.886 - 0.020ms returns 0
T5D1C 000:717.901 JLINK_WriteReg(R8, 0x00000000)
T5D1C 000:717.914 - 0.020ms returns 0
T5D1C 000:717.929 JLINK_WriteReg(R9, 0x180000B4)
T5D1C 000:717.942 - 0.020ms returns 0
T5D1C 000:717.957 JLINK_WriteReg(R10, 0x00000000)
T5D1C 000:717.971 - 0.020ms returns 0
T5D1C 000:717.985 JLINK_WriteReg(R11, 0x00000000)
T5D1C 000:717.998 - 0.020ms returns 0
T5D1C 000:718.012 JLINK_WriteReg(R12, 0x00000000)
T5D1C 000:718.026 - 0.020ms returns 0
T5D1C 000:718.041 JLINK_WriteReg(R13 (SP), 0x18000C00)
T5D1C 000:718.055 - 0.021ms returns 0
T5D1C 000:718.069 JLINK_WriteReg(R14, 0x18000001)
T5D1C 000:718.083 - 0.020ms returns 0
T5D1C 000:718.097 JLINK_WriteReg(R15 (PC), 0x18000056)
T5D1C 000:718.111 - 0.020ms returns 0
T5D1C 000:718.125 JLINK_WriteReg(XPSR, 0x01000000)
T5D1C 000:718.139 - 0.020ms returns 0
T5D1C 000:718.153 JLINK_WriteReg(MSP, 0x18000C00)
T5D1C 000:718.167 - 0.020ms returns 0
T5D1C 000:718.181 JLINK_WriteReg(PSP, 0x18000C00)
T5D1C 000:718.195 - 0.020ms returns 0
T5D1C 000:718.210 JLINK_WriteReg(CFBP, 0x00000000)
T5D1C 000:718.224 - 0.020ms returns 0
T5D1C 000:718.238 JLINK_SetBPEx(Addr = 0x18000000, Type = 0xFFFFFFF2)
T5D1C 000:718.253 - 0.021ms returns 0x0000000C
T5D1C 000:718.267 JLINK_Go()
T5D1C 000:718.284   CPU_WriteMem(4 bytes @ 0xE0002000)
T5D1C 000:718.778   CPU_ReadMem(4 bytes @ 0xE0001000)
T5D1C 000:721.477 - 3.224ms
T5D1C 000:721.505 JLINK_IsHalted()
T5D1C 000:721.930 - 0.446ms returns FALSE
T5D1C 000:721.966 JLINK_HasError()
T5D1C 000:723.569 JLINK_IsHalted()
T5D1C 000:724.065 - 0.511ms returns FALSE
T5D1C 000:724.091 JLINK_HasError()
T5D1C 000:725.603 JLINK_IsHalted()
T5D1C 000:727.785 - 2.194ms returns TRUE
T5D1C 000:727.807 JLINK_ReadReg(R15 (PC))
T5D1C 000:727.823 - 0.023ms returns 0x18000000
T5D1C 000:727.839 JLINK_ClrBPEx(BPHandle = 0x0000000C)
T5D1C 000:727.855 - 0.024ms returns 0x00
T5D1C 000:727.871 JLINK_ReadReg(R0)
T5D1C 000:727.886 - 0.025ms returns 0x00000000
T5D1C 000:728.383 JLINK_WriteMem(0x180000D8, 0x80 Bytes, ...)
T5D1C 000:728.404   Data:  07 68 02 95 8D 0A 05 FB 07 85 4F EA 93 2C 04 FB ...
T5D1C 000:728.434   CPU_WriteMem(128 bytes @ 0x180000D8)
T5D1C 000:729.531 - 1.160ms returns 0x80
T5D1C 000:729.553 JLINK_HasError()
T5D1C 000:729.569 JLINK_WriteReg(R0, 0x11000280)
T5D1C 000:729.585 - 0.022ms returns 0
T5D1C 000:729.599 JLINK_WriteReg(R1, 0x00000080)
T5D1C 000:729.613 - 0.020ms returns 0
T5D1C 000:729.628 JLINK_WriteReg(R2, 0x180000D8)
T5D1C 000:729.642 - 0.020ms returns 0
T5D1C 000:729.656 JLINK_WriteReg(R3, 0x00000000)
T5D1C 000:729.674 - 0.027ms returns 0
T5D1C 000:729.691 JLINK_WriteReg(R4, 0x00000000)
T5D1C 000:729.705 - 0.020ms returns 0
T5D1C 000:729.719 JLINK_WriteReg(R5, 0x00000000)
T5D1C 000:729.733 - 0.020ms returns 0
T5D1C 000:729.748 JLINK_WriteReg(R6, 0x00000000)
T5D1C 000:729.762 - 0.020ms returns 0
T5D1C 000:729.776 JLINK_WriteReg(R7, 0x00000000)
T5D1C 000:729.790 - 0.020ms returns 0
T5D1C 000:729.804 JLINK_WriteReg(R8, 0x00000000)
T5D1C 000:729.818 - 0.020ms returns 0
T5D1C 000:729.833 JLINK_WriteReg(R9, 0x180000B4)
T5D1C 000:729.846 - 0.020ms returns 0
T5D1C 000:729.861 JLINK_WriteReg(R10, 0x00000000)
T5D1C 000:729.874 - 0.020ms returns 0
T5D1C 000:729.889 JLINK_WriteReg(R11, 0x00000000)
T5D1C 000:729.903 - 0.020ms returns 0
T5D1C 000:729.917 JLINK_WriteReg(R12, 0x00000000)
T5D1C 000:729.931 - 0.020ms returns 0
T5D1C 000:729.945 JLINK_WriteReg(R13 (SP), 0x18000C00)
T5D1C 000:729.959 - 0.020ms returns 0
T5D1C 000:729.973 JLINK_WriteReg(R14, 0x18000001)
T5D1C 000:729.987 - 0.020ms returns 0
T5D1C 000:730.001 JLINK_WriteReg(R15 (PC), 0x18000056)
T5D1C 000:730.015 - 0.021ms returns 0
T5D1C 000:730.030 JLINK_WriteReg(XPSR, 0x01000000)
T5D1C 000:730.044 - 0.021ms returns 0
T5D1C 000:730.058 JLINK_WriteReg(MSP, 0x18000C00)
T5D1C 000:730.072 - 0.020ms returns 0
T5D1C 000:730.086 JLINK_WriteReg(PSP, 0x18000C00)
T5D1C 000:730.100 - 0.020ms returns 0
T5D1C 000:730.114 JLINK_WriteReg(CFBP, 0x00000000)
T5D1C 000:730.128 - 0.020ms returns 0
T5D1C 000:730.143 JLINK_SetBPEx(Addr = 0x18000000, Type = 0xFFFFFFF2)
T5D1C 000:730.158 - 0.022ms returns 0x0000000D
T5D1C 000:730.172 JLINK_Go()
T5D1C 000:730.190   CPU_WriteMem(4 bytes @ 0xE0002000)
T5D1C 000:730.789   CPU_ReadMem(4 bytes @ 0xE0001000)
T5D1C 000:733.474 - 3.310ms
T5D1C 000:733.492 JLINK_IsHalted()
T5D1C 000:733.950 - 0.468ms returns FALSE
T5D1C 000:733.969 JLINK_HasError()
T5D1C 000:735.597 JLINK_IsHalted()
T5D1C 000:736.072 - 0.485ms returns FALSE
T5D1C 000:736.092 JLINK_HasError()
T5D1C 000:737.626 JLINK_IsHalted()
T5D1C 000:740.018 - 2.427ms returns TRUE
T5D1C 000:740.065 JLINK_ReadReg(R15 (PC))
T5D1C 000:740.082 - 0.024ms returns 0x18000000
T5D1C 000:740.097 JLINK_ClrBPEx(BPHandle = 0x0000000D)
T5D1C 000:740.111 - 0.021ms returns 0x00
T5D1C 000:740.126 JLINK_ReadReg(R0)
T5D1C 000:740.140 - 0.020ms returns 0x00000000
T5D1C 000:740.672 JLINK_WriteMem(0x180000D8, 0x80 Bytes, ...)
T5D1C 000:740.697   Data:  01 46 F9 E7 2D E9 F0 4D 81 EA 03 04 04 F0 00 4B ...
T5D1C 000:740.728   CPU_WriteMem(128 bytes @ 0x180000D8)
T5D1C 000:741.870 - 1.207ms returns 0x80
T5D1C 000:741.889 JLINK_HasError()
T5D1C 000:741.904 JLINK_WriteReg(R0, 0x11000300)
T5D1C 000:741.920 - 0.023ms returns 0
T5D1C 000:741.935 JLINK_WriteReg(R1, 0x00000080)
T5D1C 000:741.949 - 0.020ms returns 0
T5D1C 000:741.963 JLINK_WriteReg(R2, 0x180000D8)
T5D1C 000:741.977 - 0.020ms returns 0
T5D1C 000:741.992 JLINK_WriteReg(R3, 0x00000000)
T5D1C 000:742.006 - 0.020ms returns 0
T5D1C 000:742.020 JLINK_WriteReg(R4, 0x00000000)
T5D1C 000:742.034 - 0.020ms returns 0
T5D1C 000:742.048 JLINK_WriteReg(R5, 0x00000000)
T5D1C 000:742.062 - 0.020ms returns 0
T5D1C 000:742.076 JLINK_WriteReg(R6, 0x00000000)
T5D1C 000:742.090 - 0.020ms returns 0
T5D1C 000:742.105 JLINK_WriteReg(R7, 0x00000000)
T5D1C 000:742.118 - 0.020ms returns 0
T5D1C 000:742.133 JLINK_WriteReg(R8, 0x00000000)
T5D1C 000:742.147 - 0.020ms returns 0
T5D1C 000:742.161 JLINK_WriteReg(R9, 0x180000B4)
T5D1C 000:742.175 - 0.020ms returns 0
T5D1C 000:742.189 JLINK_WriteReg(R10, 0x00000000)
T5D1C 000:742.203 - 0.020ms returns 0
T5D1C 000:742.217 JLINK_WriteReg(R11, 0x00000000)
T5D1C 000:742.231 - 0.020ms returns 0
T5D1C 000:742.245 JLINK_WriteReg(R12, 0x00000000)
T5D1C 000:742.259 - 0.020ms returns 0
T5D1C 000:742.273 JLINK_WriteReg(R13 (SP), 0x18000C00)
T5D1C 000:742.288 - 0.021ms returns 0
T5D1C 000:742.302 JLINK_WriteReg(R14, 0x18000001)
T5D1C 000:742.316 - 0.020ms returns 0
T5D1C 000:742.331 JLINK_WriteReg(R15 (PC), 0x18000056)
T5D1C 000:742.345 - 0.022ms returns 0
T5D1C 000:742.364 JLINK_WriteReg(XPSR, 0x01000000)
T5D1C 000:742.382 - 0.024ms returns 0
T5D1C 000:742.397 JLINK_WriteReg(MSP, 0x18000C00)
T5D1C 000:742.411 - 0.021ms returns 0
T5D1C 000:742.425 JLINK_WriteReg(PSP, 0x18000C00)
T5D1C 000:742.440 - 0.021ms returns 0
T5D1C 000:742.455 JLINK_WriteReg(CFBP, 0x00000000)
T5D1C 000:742.469 - 0.021ms returns 0
T5D1C 000:742.484 JLINK_SetBPEx(Addr = 0x18000000, Type = 0xFFFFFFF2)
T5D1C 000:742.500 - 0.022ms returns 0x0000000E
T5D1C 000:742.515 JLINK_Go()
T5D1C 000:742.531   CPU_WriteMem(4 bytes @ 0xE0002000)
T5D1C 000:743.008   CPU_ReadMem(4 bytes @ 0xE0001000)
T5D1C 000:745.729 - 3.223ms
T5D1C 000:745.747 JLINK_IsHalted()
T5D1C 000:746.229 - 0.499ms returns FALSE
T5D1C 000:746.261 JLINK_HasError()
T5D1C 000:747.565 JLINK_IsHalted()
T5D1C 000:748.081 - 0.523ms returns FALSE
T5D1C 000:748.098 JLINK_HasError()
T5D1C 000:749.602 JLINK_IsHalted()
T5D1C 000:751.941 - 2.363ms returns TRUE
T5D1C 000:751.981 JLINK_ReadReg(R15 (PC))
T5D1C 000:752.005 - 0.034ms returns 0x18000000
T5D1C 000:752.027 JLINK_ClrBPEx(BPHandle = 0x0000000E)
T5D1C 000:752.049 - 0.032ms returns 0x00
T5D1C 000:752.070 JLINK_ReadReg(R0)
T5D1C 000:752.092 - 0.031ms returns 0x00000000
T5D1C 000:752.802 JLINK_WriteMem(0x180000D8, 0x80 Bytes, ...)
T5D1C 000:752.834   Data:  05 D3 12 1B 63 EB 05 03 06 43 4C EA 01 0C 49 08 ...
T5D1C 000:752.873   CPU_WriteMem(128 bytes @ 0x180000D8)
T5D1C 000:753.941 - 1.157ms returns 0x80
T5D1C 000:753.970 JLINK_HasError()
T5D1C 000:753.987 JLINK_WriteReg(R0, 0x11000380)
T5D1C 000:754.005 - 0.025ms returns 0
T5D1C 000:754.020 JLINK_WriteReg(R1, 0x00000080)
T5D1C 000:754.034 - 0.020ms returns 0
T5D1C 000:754.048 JLINK_WriteReg(R2, 0x180000D8)
T5D1C 000:754.062 - 0.020ms returns 0
T5D1C 000:754.076 JLINK_WriteReg(R3, 0x00000000)
T5D1C 000:754.090 - 0.020ms returns 0
T5D1C 000:754.104 JLINK_WriteReg(R4, 0x00000000)
